T3C50 000:008.096   SEGGER J-Link V6.86 Log File
T3C50 000:008.216   DLL Compiled: Sep 24 2020 17:31:31
T3C50 000:008.228   Logging started @ 2021-01-13 08:00
T3C50 000:008.241 - 8.248ms
T3C50 000:008.261 JLINK_SetWarnOutHandler(...)
T3C50 000:008.274 - 0.019ms
T3C50 000:008.287 JLINK_OpenEx(...)
T3C50 000:009.764   Firmware: J-Link V9 compiled Dec 13 2019 11:14:50
T3C50 000:010.147   Decompressing FW timestamp took 298 us
T3C50 000:016.084   Hardware: V9.20
T3C50 000:016.153   S/N: 4294967295
T3C50 000:016.186   OEM: SEGGER
T3C50 000:016.218   Feature(s): None
T3C50 000:017.376   TELNET listener socket opened on port 19021
T3C50 000:017.865   WEBSRV Starting webserver
T3C50 000:018.217   WEBSRV Webserver running on local port 19080
T3C50 000:018.257 - 9.976ms returns "O.K."
T3C50 000:018.283 JLINK_GetEmuCaps()
T3C50 000:018.295 - 0.018ms returns 0xB9FF7BBF
T3C50 000:018.312 JLINK_TIF_GetAvailable(...)
T3C50 000:018.498 - 0.197ms
T3C50 000:018.518 JLINK_SetErrorOutHandler(...)
T3C50 000:018.529 - 0.016ms
T3C50 000:018.551 JLINK_ExecCommand("ProjectFile = "C:\Users\pan39\Desktop\singalchip\stm32H7boot\example\TestGfx\MDK-ARM\JLinkSettings.ini"", ...). 
T3C50 000:027.562   Ref file found at: C:\Keil_v5\ARM\Segger\JLinkDevices.ref
T3C50 000:027.777   XML referenced by ref file: C:\Program Files (x86)\SEGGER\JLink\JLinkDevices.xml
T3C50 000:028.695   C:\Program Files (x86)\SEGGER\JLink\JLinkDevices.xml evaluated successfully.
T3C50 000:128.911   Device "CORTEX-M7" selected.
T3C50 000:129.618 - 111.077ms returns 0x00
T3C50 000:130.126 JLINK_ExecCommand("Device = STM32H750VBTx", ...). 
T3C50 000:130.515   Device "CORTEX-M7" selected.
T3C50 000:130.993 - 0.852ms returns 0x00
T3C50 000:131.018 JLINK_GetHardwareVersion()
T3C50 000:131.029 - 0.016ms returns 92000
T3C50 000:131.063 JLINK_GetDLLVersion()
T3C50 000:131.074 - 0.016ms returns 68600
T3C50 000:131.085 JLINK_GetOEMString(...)
T3C50 000:131.097 JLINK_GetFirmwareString(...)
T3C50 000:131.108 - 0.016ms
T3C50 000:131.802 JLINK_GetDLLVersion()
T3C50 000:131.821 - 0.025ms returns 68600
T3C50 000:131.833 JLINK_GetCompileDateTime()
T3C50 000:131.844 - 0.015ms
T3C50 000:132.039 JLINK_GetFirmwareString(...)
T3C50 000:132.068 - 0.035ms
T3C50 000:132.267 JLINK_GetHardwareVersion()
T3C50 000:132.282 - 0.020ms returns 92000
T3C50 000:132.476 JLINK_GetSN()
T3C50 000:132.492 - 0.021ms returns -1
T3C50 000:132.504 JLINK_GetOEMString(...)
T3C50 000:132.696 JLINK_TIF_Select(JLINKARM_TIF_SWD)
T3C50 000:133.359 - 0.678ms returns 0x00
T3C50 000:133.384 JLINK_HasError()
T3C50 000:133.402 JLINK_SetSpeed(20000)
T3C50 000:133.491 - 0.099ms
T3C50 000:133.510 JLINK_GetId()
T3C50 000:134.682   Found SW-DP with ID 0x6BA02477
T3C50 000:136.076   Old FW that does not support reading DPIDR via DAP jobs
T3C50 000:136.760   Unknown DP version. Assuming DPv0
T3C50 000:136.967   Scanning AP map to find all available APs
T3C50 000:138.064   AP[3]: Stopped AP scan as end of AP map has been reached
T3C50 000:138.269   AP[0]: AHB-AP (IDR: 0x84770001)
T3C50 000:141.165   AP[1]: AHB-AP (IDR: 0x84770001)
T3C50 000:143.239   AP[2]: APB-AP (IDR: 0x54770002)
T3C50 000:145.087   Iterating through AP map to find AHB-AP to use
T3C50 000:147.671   AP[0]: Core found
T3C50 000:149.781   AP[0]: AHB-AP ROM base: 0xE00FE000
T3C50 000:151.962   CPUID register: 0x411FC271. Implementer code: 0x41 (ARM)
T3C50 000:153.917   Found Cortex-M7 r1p1, Little endian.
T3C50 000:254.800   -- Max. mem block: 0x00010DF0
T3C50 000:255.409   CPU_ReadMem(4 bytes @ 0xE000EDF0)
T3C50 000:255.774   CPU_WriteMem(4 bytes @ 0xE000EDF0)
T3C50 000:256.017   CPU_ReadMem(4 bytes @ 0xE0002000)
T3C50 000:258.372   FPUnit: 8 code (BP) slots and 0 literal slots
T3C50 000:258.408   CPU_ReadMem(4 bytes @ 0xE000EDFC)
T3C50 000:258.745   CPU_WriteMem(4 bytes @ 0xE000EDFC)
T3C50 000:259.009   CPU_ReadMem(4 bytes @ 0xE0001000)
T3C50 000:259.261   CPU_WriteMem(4 bytes @ 0xE0001000)
T3C50 000:259.537   CPU_ReadMem(4 bytes @ 0xE000ED88)
T3C50 000:259.784   CPU_WriteMem(4 bytes @ 0xE000ED88)
T3C50 000:260.022   CPU_ReadMem(4 bytes @ 0xE000ED88)
T3C50 000:260.321   CPU_WriteMem(4 bytes @ 0xE000ED88)
T3C50 000:262.627   CoreSight components:
T3C50 000:264.545   ROMTbl[0] @ E00FE000
T3C50 000:264.581   CPU_ReadMem(64 bytes @ 0xE00FE000)
T3C50 000:265.028   CPU_ReadMem(32 bytes @ 0xE00FFFE0)
T3C50 000:267.498   ROMTbl[0][0]: E00FF000, CID: B105100D, PID: 000BB4C7 ROM Table
T3C50 000:269.392   ROMTbl[1] @ E00FF000
T3C50 000:269.425   CPU_ReadMem(64 bytes @ 0xE00FF000)
T3C50 000:269.870   CPU_ReadMem(32 bytes @ 0xE000EFE0)
T3C50 000:272.248   ROMTbl[1][0]: E000E000, CID: B105E00D, PID: 000BB00C SCS-M7
T3C50 000:272.302   CPU_ReadMem(32 bytes @ 0xE0001FE0)
T3C50 000:275.028   ROMTbl[1][1]: E0001000, CID: B105E00D, PID: 000BB002 DWT
T3C50 000:275.075   CPU_ReadMem(32 bytes @ 0xE0002FE0)
T3C50 000:277.496   ROMTbl[1][2]: E0002000, CID: B105E00D, PID: 000BB00E FPB-M7
T3C50 000:277.540   CPU_ReadMem(32 bytes @ 0xE0000FE0)
T3C50 000:279.864   ROMTbl[1][3]: E0000000, CID: B105E00D, PID: 000BB001 ITM
T3C50 000:279.917   CPU_ReadMem(32 bytes @ 0xE0041FE0)
T3C50 000:282.458   ROMTbl[0][1]: E0041000, CID: B105900D, PID: 001BB975 ETM-M7
T3C50 000:282.496   CPU_ReadMem(32 bytes @ 0xE0043FE0)
T3C50 000:284.801   ROMTbl[0][2]: E0043000, CID: B105900D, PID: 004BB906 CTI
T3C50 000:284.840   CPU_ReadMem(4 bytes @ 0xE000ED78)
T3C50 000:287.187   Cache: Separate I- and D-cache.
T3C50 000:287.234   CPU_WriteMem(4 bytes @ 0xE000ED84)
T3C50 000:287.498   CPU_ReadMem(4 bytes @ 0xE000ED80)
T3C50 000:289.882   I-Cache L1: 16 KB, 256 Sets, 32 Bytes/Line, 2-Way
T3C50 000:289.934   CPU_WriteMem(4 bytes @ 0xE000ED84)
T3C50 000:290.193   CPU_ReadMem(4 bytes @ 0xE000ED80)
T3C50 000:292.718   D-Cache L1: 16 KB, 128 Sets, 32 Bytes/Line, 4-Way
T3C50 000:292.998 - 159.500ms returns 0x6BA02477
T3C50 000:293.024 JLINK_GetDLLVersion()
T3C50 000:293.035 - 0.016ms returns 68600
T3C50 000:293.048 JLINK_CORE_GetFound()
T3C50 000:293.059 - 0.016ms returns 0xE0100FF
T3C50 000:293.072 JLINK_GetDebugInfo(0x100 = JLINKARM_ROM_TABLE_ADDR_INDEX)
T3C50 000:293.085   Value=0xE00FE000
T3C50 000:293.101 - 0.033ms returns 0
T3C50 000:295.221 JLINK_GetDebugInfo(0x100 = JLINKARM_ROM_TABLE_ADDR_INDEX)
T3C50 000:295.263   Value=0xE00FE000
T3C50 000:295.279 - 0.062ms returns 0
T3C50 000:295.291 JLINK_GetDebugInfo(0x101 = JLINKARM_DEBUG_INFO_ETM_ADDR_INDEX)
T3C50 000:295.302   Value=0xE0041000
T3C50 000:295.317 - 0.031ms returns 0
T3C50 000:295.338 JLINK_ReadMemEx(0xE0041FD0, 0x20 Bytes, Flags = 0x02000004)
T3C50 000:295.368   CPU_ReadMem(32 bytes @ 0xE0041FD0)
T3C50 000:295.761   Data:  04 00 00 00 00 00 00 00 00 00 00 00 00 00 00 00 ...
T3C50 000:295.785 - 0.452ms returns 32 (0x20)
T3C50 000:295.799 JLINK_GetDebugInfo(0x102 = JLINKARM_DEBUG_INFO_MTB_ADDR_INDEX)
T3C50 000:295.811   Value=0x00000000
T3C50 000:295.829 - 0.035ms returns 0
T3C50 000:295.842 JLINK_GetDebugInfo(0x103 = JLINKARM_DEBUG_INFO_TPIU_ADDR_INDEX)
T3C50 000:295.854   Value=0x00000000
T3C50 000:295.872 - 0.036ms returns 0
T3C50 000:295.886 JLINK_ReadMemEx(0xE0040FF0, 0x10 Bytes, Flags = 0x02000004)
T3C50 000:295.904   CPU_ReadMem(16 bytes @ 0xE0040FF0)
T3C50 000:296.184   Data:  00 00 00 00 00 00 00 00 00 00 00 00 00 00 00 00
T3C50 000:296.208 - 0.328ms returns 16 (0x10)
T3C50 000:296.223 JLINK_GetDebugInfo(0x104 = JLINKARM_DEBUG_INFO_ITM_ADDR_INDEX)
T3C50 000:296.236   Value=0xE0000000
T3C50 000:296.254 - 0.036ms returns 0
T3C50 000:296.267 JLINK_GetDebugInfo(0x105 = JLINKARM_DEBUG_INFO_DWT_ADDR_INDEX)
T3C50 000:296.279   Value=0xE0001000
T3C50 000:296.297 - 0.036ms returns 0
T3C50 000:296.310 JLINK_GetDebugInfo(0x106 = JLINKARM_DEBUG_INFO_FPB_ADDR_INDEX)
T3C50 000:296.322   Value=0xE0002000
T3C50 000:296.340 - 0.036ms returns 0
T3C50 000:296.353 JLINK_GetDebugInfo(0x107 = JLINKARM_DEBUG_INFO_NVIC_ADDR_INDEX)
T3C50 000:296.365   Value=0xE000E000
T3C50 000:296.383 - 0.036ms returns 0
T3C50 000:296.396 JLINK_GetDebugInfo(0x10C = JLINKARM_DEBUG_INFO_DBG_ADDR_INDEX)
T3C50 000:296.408   Value=0xE000EDF0
T3C50 000:296.426 - 0.036ms returns 0
T3C50 000:296.439 JLINK_GetDebugInfo(0x01 = Unknown)
T3C50 000:296.458   Value=0x00000001
T3C50 000:296.475 - 0.042ms returns 0
T3C50 000:296.489 JLINK_ReadMemU32(0xE000ED00, 0x1 Items)
T3C50 000:296.504   CPU_ReadMem(4 bytes @ 0xE000ED00)
T3C50 000:296.761   Data:  71 C2 1F 41
T3C50 000:296.785   Debug reg: CPUID
T3C50 000:296.804 - 0.322ms returns 1 (0x1)
T3C50 000:296.821 JLINK_GetDebugInfo(0x10F = JLINKARM_DEBUG_INFO_HAS_CORTEX_M_SECURITY_EXT_INDEX)
T3C50 000:296.835   Value=0x00000000
T3C50 000:296.853 - 0.038ms returns 0
T3C50 000:296.866 JLINK_HasError()
T3C50 000:296.880 JLINK_SetResetType(JLINKARM_CM3_RESET_TYPE_NORMAL)
T3C50 000:296.892 - 0.018ms returns JLINKARM_CM3_RESET_TYPE_NORMAL
T3C50 000:296.905 JLINK_Reset()
T3C50 000:296.929   CPU is running
T3C50 000:296.947   CPU_WriteMem(4 bytes @ 0xE000EDF0)
T3C50 000:297.169   CPU is running
T3C50 000:297.192   CPU_WriteMem(4 bytes @ 0xE000EDFC)
T3C50 000:299.482   Reset: Halt core after reset via DEMCR.VC_CORERESET.
T3C50 000:301.914   Reset: Reset device via AIRCR.SYSRESETREQ.
T3C50 000:301.953   CPU is running
T3C50 000:301.972   CPU_WriteMem(4 bytes @ 0xE000ED0C)
T3C50 000:354.544   CPU_ReadMem(4 bytes @ 0xE000EDF0)
T3C50 000:354.872   CPU_ReadMem(4 bytes @ 0xE000EDF0)
T3C50 000:355.143   CPU is running
T3C50 000:355.165   CPU_WriteMem(4 bytes @ 0xE000EDF0)
T3C50 000:355.404   CPU is running
T3C50 000:355.425   CPU_WriteMem(4 bytes @ 0xE000EDFC)
T3C50 000:361.179   CPU_ReadMem(4 bytes @ 0xE000EDF0)
T3C50 000:363.022   CPU_WriteMem(4 bytes @ 0xE0002000)
T3C50 000:363.256   CPU_ReadMem(4 bytes @ 0xE000EDFC)
T3C50 000:363.506   CPU_ReadMem(4 bytes @ 0xE0001000)
T3C50 000:363.782 - 66.889ms
T3C50 000:363.809 JLINK_Halt()
T3C50 000:363.820 - 0.017ms returns 0x00
T3C50 000:363.833 JLINK_ReadMemU32(0xE000EDF0, 0x1 Items)
T3C50 000:363.850   CPU_ReadMem(4 bytes @ 0xE000EDF0)
T3C50 000:364.107   Data:  03 00 03 00
T3C50 000:364.172   Debug reg: DHCSR
T3C50 000:364.213 - 0.394ms returns 1 (0x1)
T3C50 000:364.261 JLINK_WriteU32_64(0xE000EDF0, 0xA05F0003)
T3C50 000:364.295   Debug reg: DHCSR
T3C50 000:364.358   CPU_WriteMem(4 bytes @ 0xE000EDF0)
T3C50 000:364.768 - 0.537ms returns 0 (0x00000000)
T3C50 000:364.826 JLINK_WriteU32_64(0xE000EDFC, 0x01000000)
T3C50 000:364.857   Debug reg: DEMCR
T3C50 000:364.911   CPU_WriteMem(4 bytes @ 0xE000EDFC)
T3C50 000:365.142 - 0.328ms returns 0 (0x00000000)
T3C50 000:373.083 JLINK_GetHWStatus(...)
T3C50 000:373.302 - 0.233ms returns 0
T3C50 000:379.070 JLINK_GetNumBPUnits(Type = 0xFFFFFF00)
T3C50 000:379.130 - 0.067ms returns 0x08
T3C50 000:379.147 JLINK_GetNumBPUnits(Type = 0xF0)
T3C50 000:379.175 - 0.036ms returns 0x2000
T3C50 000:379.195 JLINK_GetNumWPUnits()
T3C50 000:379.213 - 0.023ms returns 4
T3C50 000:384.693 JLINK_GetSpeed()
T3C50 000:384.732 - 0.045ms returns 12000
T3C50 000:388.405 JLINK_ReadMemU32(0xE000E004, 0x1 Items)
T3C50 000:388.455   CPU_ReadMem(4 bytes @ 0xE000E004)
T3C50 000:388.735   Data:  04 00 00 00
T3C50 000:388.760 - 0.361ms returns 1 (0x1)
T3C50 000:388.775 JLINK_ReadMemU32(0xE000E004, 0x1 Items)
T3C50 000:388.791   CPU_ReadMem(4 bytes @ 0xE000E004)
T3C50 000:389.046   Data:  04 00 00 00
T3C50 000:389.069 - 0.299ms returns 1 (0x1)
T3C50 000:389.083 JLINK_WriteMemEx(0xE0001000, 0x0000001C Bytes, Flags = 0x02000004)
T3C50 000:389.094   Data:  01 00 00 00 00 00 00 00 00 00 00 00 00 00 00 00 ...
T3C50 000:389.388   CPU_WriteMem(28 bytes @ 0xE0001000)
T3C50 000:389.735 - 0.666ms returns 0x1C
T3C50 000:389.765 JLINK_Halt()
T3C50 000:389.777 - 0.017ms returns 0x00
T3C50 000:389.788 JLINK_IsHalted()
T3C50 000:389.800 - 0.016ms returns TRUE
T3C50 000:393.446 JLINK_WriteMem(0x20000000, 0xB4C Bytes, ...)
T3C50 000:393.466   Data:  00 BE 0A E0 0D 78 2D 06 68 40 08 24 40 00 00 D3 ...
T3C50 000:393.671   CPU_WriteMem(2892 bytes @ 0x20000000)
T3C50 000:400.544 - 7.130ms returns 0xB4C
T3C50 000:400.643 JLINK_HasError()
T3C50 000:400.679 JLINK_WriteReg(R0, 0x90000000)
T3C50 000:400.714 - 0.050ms returns 0
T3C50 000:400.746 JLINK_WriteReg(R1, 0x0E4E1C00)
T3C50 000:400.782 - 0.055ms returns 0
T3C50 000:400.818 JLINK_WriteReg(R2, 0x00000001)
T3C50 000:400.848 - 0.043ms returns 0
T3C50 000:400.878 JLINK_WriteReg(R3, 0x00000000)
T3C50 000:400.907 - 0.042ms returns 0
T3C50 000:400.937 JLINK_WriteReg(R4, 0x00000000)
T3C50 000:400.966 - 0.042ms returns 0
T3C50 000:400.996 JLINK_WriteReg(R5, 0x00000000)
T3C50 000:401.025 - 0.040ms returns 0
T3C50 000:401.045 JLINK_WriteReg(R6, 0x00000000)
T3C50 000:401.057 - 0.016ms returns 0
T3C50 000:401.068 JLINK_WriteReg(R7, 0x00000000)
T3C50 000:401.079 - 0.016ms returns 0
T3C50 000:401.090 JLINK_WriteReg(R8, 0x00000000)
T3C50 000:401.106 - 0.021ms returns 0
T3C50 000:401.118 JLINK_WriteReg(R9, 0x20000B40)
T3C50 000:401.130 - 0.017ms returns 0
T3C50 000:401.142 JLINK_WriteReg(R10, 0x00000000)
T3C50 000:401.153 - 0.016ms returns 0
T3C50 000:401.164 JLINK_WriteReg(R11, 0x00000000)
T3C50 000:401.175 - 0.016ms returns 0
T3C50 000:401.186 JLINK_WriteReg(R12, 0x00000000)
T3C50 000:401.197 - 0.016ms returns 0
T3C50 000:401.209 JLINK_WriteReg(R13 (SP), 0x20008000)
T3C50 000:401.220 - 0.017ms returns 0
T3C50 000:401.232 JLINK_WriteReg(R14, 0x20000001)
T3C50 000:401.243 - 0.016ms returns 0
T3C50 000:401.254 JLINK_WriteReg(R15 (PC), 0x20000068)
T3C50 000:401.267 - 0.017ms returns 0
T3C50 000:401.278 JLINK_WriteReg(XPSR, 0x01000000)
T3C50 000:401.289 - 0.016ms returns 0
T3C50 000:401.300 JLINK_WriteReg(MSP, 0x20008000)
T3C50 000:401.311 - 0.016ms returns 0
T3C50 000:401.323 JLINK_WriteReg(PSP, 0x20008000)
T3C50 000:401.334 - 0.016ms returns 0
T3C50 000:401.345 JLINK_WriteReg(CFBP, 0x00000000)
T3C50 000:401.356 - 0.016ms returns 0
T3C50 000:401.368 JLINK_SetBPEx(Addr = 0x20000000, Type = 0xFFFFFFF2)
T3C50 000:401.380 - 0.017ms returns 0x00000001
T3C50 000:401.392 JLINK_Go()
T3C50 000:401.406   CPU_WriteMem(4 bytes @ 0xE0002000)
T3C50 000:401.750   CPU_ReadMem(4 bytes @ 0xE0001000)
T3C50 000:402.008   CPU_WriteMem(4 bytes @ 0xE0002008)
T3C50 000:402.031   CPU_WriteMem(4 bytes @ 0xE000200C)
T3C50 000:402.047   CPU_WriteMem(4 bytes @ 0xE0002010)
T3C50 000:402.063   CPU_WriteMem(4 bytes @ 0xE0002014)
T3C50 000:402.078   CPU_WriteMem(4 bytes @ 0xE0002018)
T3C50 000:402.094   CPU_WriteMem(4 bytes @ 0xE000201C)
T3C50 000:402.110   CPU_WriteMem(4 bytes @ 0xE0002020)
T3C50 000:402.127   CPU_WriteMem(4 bytes @ 0xE0002024)
T3C50 000:403.164   CPU_WriteMem(4 bytes @ 0xE0001004)
T3C50 000:404.920 - 3.551ms
T3C50 000:404.961 JLINK_IsHalted()
T3C50 000:406.418 - 1.522ms returns TRUE
T3C50 000:406.498 JLINK_ReadReg(R15 (PC))
T3C50 000:406.516 - 0.023ms returns 0x20000000
T3C50 000:406.528 JLINK_ClrBPEx(BPHandle = 0x00000001)
T3C50 000:406.540 - 0.017ms returns 0x00
T3C50 000:406.553 JLINK_ReadReg(R0)
T3C50 000:406.564 - 0.017ms returns 0x00000000
T3C50 000:407.315 JLINK_HasError()
T3C50 000:407.337 JLINK_WriteReg(R0, 0x90000000)
T3C50 000:407.352 - 0.020ms returns 0
T3C50 000:407.364 JLINK_WriteReg(R1, 0x00001000)
T3C50 000:407.375 - 0.016ms returns 0
T3C50 000:407.386 JLINK_WriteReg(R2, 0x000000FF)
T3C50 000:407.398 - 0.016ms returns 0
T3C50 000:407.409 JLINK_WriteReg(R3, 0x00000000)
T3C50 000:407.420 - 0.016ms returns 0
T3C50 000:407.432 JLINK_WriteReg(R4, 0x00000000)
T3C50 000:407.443 - 0.016ms returns 0
T3C50 000:407.454 JLINK_WriteReg(R5, 0x00000000)
T3C50 000:407.465 - 0.016ms returns 0
T3C50 000:407.476 JLINK_WriteReg(R6, 0x00000000)
T3C50 000:407.487 - 0.016ms returns 0
T3C50 000:407.499 JLINK_WriteReg(R7, 0x00000000)
T3C50 000:407.510 - 0.016ms returns 0
T3C50 000:407.521 JLINK_WriteReg(R8, 0x00000000)
T3C50 000:407.532 - 0.016ms returns 0
T3C50 000:407.543 JLINK_WriteReg(R9, 0x20000B40)
T3C50 000:407.554 - 0.016ms returns 0
T3C50 000:407.566 JLINK_WriteReg(R10, 0x00000000)
T3C50 000:407.577 - 0.016ms returns 0
T3C50 000:407.588 JLINK_WriteReg(R11, 0x00000000)
T3C50 000:407.599 - 0.016ms returns 0
T3C50 000:407.610 JLINK_WriteReg(R12, 0x00000000)
T3C50 000:407.621 - 0.016ms returns 0
T3C50 000:407.633 JLINK_WriteReg(R13 (SP), 0x20008000)
T3C50 000:407.644 - 0.016ms returns 0
T3C50 000:407.725 JLINK_WriteReg(R14, 0x20000001)
T3C50 000:407.739 - 0.019ms returns 0
T3C50 000:407.751 JLINK_WriteReg(R15 (PC), 0x200000AC)
T3C50 000:407.762 - 0.016ms returns 0
T3C50 000:407.774 JLINK_WriteReg(XPSR, 0x01000000)
T3C50 000:407.785 - 0.016ms returns 0
T3C50 000:407.796 JLINK_WriteReg(MSP, 0x20008000)
T3C50 000:407.808 - 0.016ms returns 0
T3C50 000:407.819 JLINK_WriteReg(PSP, 0x20008000)
T3C50 000:407.830 - 0.016ms returns 0
T3C50 000:407.841 JLINK_WriteReg(CFBP, 0x00000000)
T3C50 000:407.852 - 0.016ms returns 0
T3C50 000:407.864 JLINK_SetBPEx(Addr = 0x20000000, Type = 0xFFFFFFF2)
T3C50 000:407.876 - 0.017ms returns 0x00000002
T3C50 000:407.888 JLINK_Go()
T3C50 000:407.904   CPU_WriteMem(4 bytes @ 0xE0002000)
T3C50 000:408.162   CPU_ReadMem(4 bytes @ 0xE0001000)
T3C50 000:410.048 - 2.170ms
T3C50 000:410.067 JLINK_IsHalted()
T3C50 000:411.422 - 1.390ms returns TRUE
T3C50 000:411.468 JLINK_ReadReg(R15 (PC))
T3C50 000:411.483 - 0.020ms returns 0x20000000
T3C50 000:411.495 JLINK_ClrBPEx(BPHandle = 0x00000002)
T3C50 000:411.507 - 0.017ms returns 0x00
T3C50 000:411.519 JLINK_ReadReg(R0)
T3C50 000:411.530 - 0.016ms returns 0x00000001
T3C50 000:411.543 JLINK_HasError()
T3C50 000:411.555 JLINK_WriteReg(R0, 0x90000000)
T3C50 000:411.567 - 0.017ms returns 0
T3C50 000:411.579 JLINK_WriteReg(R1, 0x00001000)
T3C50 000:411.590 - 0.016ms returns 0
T3C50 000:411.602 JLINK_WriteReg(R2, 0x000000FF)
T3C50 000:411.613 - 0.016ms returns 0
T3C50 000:411.624 JLINK_WriteReg(R3, 0x00000000)
T3C50 000:411.635 - 0.016ms returns 0
T3C50 000:411.646 JLINK_WriteReg(R4, 0x00000000)
T3C50 000:411.657 - 0.016ms returns 0
T3C50 000:411.669 JLINK_WriteReg(R5, 0x00000000)
T3C50 000:411.680 - 0.016ms returns 0
T3C50 000:411.691 JLINK_WriteReg(R6, 0x00000000)
T3C50 000:411.702 - 0.016ms returns 0
T3C50 000:411.713 JLINK_WriteReg(R7, 0x00000000)
T3C50 000:411.724 - 0.016ms returns 0
T3C50 000:411.736 JLINK_WriteReg(R8, 0x00000000)
T3C50 000:411.747 - 0.016ms returns 0
T3C50 000:411.758 JLINK_WriteReg(R9, 0x20000B40)
T3C50 000:411.769 - 0.016ms returns 0
T3C50 000:411.780 JLINK_WriteReg(R10, 0x00000000)
T3C50 000:411.791 - 0.016ms returns 0
T3C50 000:411.802 JLINK_WriteReg(R11, 0x00000000)
T3C50 000:411.813 - 0.016ms returns 0
T3C50 000:411.825 JLINK_WriteReg(R12, 0x00000000)
T3C50 000:411.836 - 0.016ms returns 0
T3C50 000:411.847 JLINK_WriteReg(R13 (SP), 0x20008000)
T3C50 000:411.858 - 0.016ms returns 0
T3C50 000:411.870 JLINK_WriteReg(R14, 0x20000001)
T3C50 000:411.880 - 0.016ms returns 0
T3C50 000:411.892 JLINK_WriteReg(R15 (PC), 0x2000009A)
T3C50 000:411.903 - 0.016ms returns 0
T3C50 000:411.914 JLINK_WriteReg(XPSR, 0x01000000)
T3C50 000:411.925 - 0.016ms returns 0
T3C50 000:411.936 JLINK_WriteReg(MSP, 0x20008000)
T3C50 000:411.947 - 0.016ms returns 0
T3C50 000:411.959 JLINK_WriteReg(PSP, 0x20008000)
T3C50 000:411.970 - 0.016ms returns 0
T3C50 000:411.981 JLINK_WriteReg(CFBP, 0x00000000)
T3C50 000:411.992 - 0.016ms returns 0
T3C50 000:412.004 JLINK_SetBPEx(Addr = 0x20000000, Type = 0xFFFFFFF2)
T3C50 000:412.018 - 0.020ms returns 0x00000003
T3C50 000:412.031 JLINK_Go()
T3C50 000:412.047   CPU_WriteMem(4 bytes @ 0xE0002000)
T3C50 000:412.294   CPU_ReadMem(4 bytes @ 0xE0001000)
T3C50 000:414.112 - 2.093ms
T3C50 000:414.132 JLINK_IsHalted()
T3C50 000:414.370 - 0.262ms returns FALSE
T3C50 000:414.413 JLINK_HasError()
T3C50 000:433.140 JLINK_IsHalted()
T3C50 000:433.442 - 0.324ms returns FALSE
T3C50 000:433.481 JLINK_HasError()
T3C50 000:435.126 JLINK_IsHalted()
T3C50 000:435.347 - 0.231ms returns FALSE
T3C50 000:435.365 JLINK_HasError()
T3C50 000:437.135 JLINK_IsHalted()
T3C50 000:437.354 - 0.228ms returns FALSE
T3C50 000:437.372 JLINK_HasError()
T3C50 000:439.134 JLINK_IsHalted()
T3C50 000:439.367 - 0.243ms returns FALSE
T3C50 000:439.385 JLINK_HasError()
T3C50 000:441.129 JLINK_IsHalted()
T3C50 000:441.384 - 0.294ms returns FALSE
T3C50 000:441.444 JLINK_HasError()
T3C50 000:443.138 JLINK_IsHalted()
T3C50 000:443.364 - 0.236ms returns FALSE
T3C50 000:443.383 JLINK_HasError()
T3C50 000:445.137 JLINK_IsHalted()
T3C50 000:445.378 - 0.267ms returns FALSE
T3C50 000:445.423 JLINK_HasError()
T3C50 000:447.138 JLINK_IsHalted()
T3C50 000:447.360 - 0.231ms returns FALSE
T3C50 000:447.378 JLINK_HasError()
T3C50 000:449.147 JLINK_IsHalted()
T3C50 000:449.406 - 0.283ms returns FALSE
T3C50 000:449.448 JLINK_HasError()
T3C50 000:453.157 JLINK_IsHalted()
T3C50 000:453.443 - 0.314ms returns FALSE
T3C50 000:453.492 JLINK_HasError()
T3C50 000:455.143 JLINK_IsHalted()
T3C50 000:455.366 - 0.233ms returns FALSE
T3C50 000:455.384 JLINK_HasError()
T3C50 000:457.148 JLINK_IsHalted()
T3C50 000:457.381 - 0.243ms returns FALSE
T3C50 000:457.400 JLINK_HasError()
T3C50 000:459.141 JLINK_IsHalted()
T3C50 000:459.404 - 0.301ms returns FALSE
T3C50 000:459.463 JLINK_HasError()
T3C50 000:461.205 JLINK_IsHalted()
T3C50 000:462.805 - 1.611ms returns TRUE
T3C50 000:462.824 JLINK_ReadReg(R15 (PC))
T3C50 000:462.838 - 0.019ms returns 0x20000000
T3C50 000:462.850 JLINK_ClrBPEx(BPHandle = 0x00000003)
T3C50 000:462.862 - 0.017ms returns 0x00
T3C50 000:462.874 JLINK_ReadReg(R0)
T3C50 000:462.885 - 0.016ms returns 0x00000000
T3C50 000:463.936 JLINK_HasError()
T3C50 000:463.982 JLINK_WriteReg(R0, 0x90001000)
T3C50 000:464.016 - 0.048ms returns 0
T3C50 000:464.048 JLINK_WriteReg(R1, 0x00001000)
T3C50 000:464.077 - 0.043ms returns 0
T3C50 000:464.108 JLINK_WriteReg(R2, 0x000000FF)
T3C50 000:464.126 - 0.023ms returns 0
T3C50 000:464.139 JLINK_WriteReg(R3, 0x00000000)
T3C50 000:464.150 - 0.017ms returns 0
T3C50 000:464.162 JLINK_WriteReg(R4, 0x00000000)
T3C50 000:464.173 - 0.016ms returns 0
T3C50 000:464.184 JLINK_WriteReg(R5, 0x00000000)
T3C50 000:464.195 - 0.016ms returns 0
T3C50 000:464.207 JLINK_WriteReg(R6, 0x00000000)
T3C50 000:464.217 - 0.016ms returns 0
T3C50 000:464.229 JLINK_WriteReg(R7, 0x00000000)
T3C50 000:464.240 - 0.016ms returns 0
T3C50 000:464.251 JLINK_WriteReg(R8, 0x00000000)
T3C50 000:464.263 - 0.016ms returns 0
T3C50 000:464.274 JLINK_WriteReg(R9, 0x20000B40)
T3C50 000:464.285 - 0.016ms returns 0
T3C50 000:464.296 JLINK_WriteReg(R10, 0x00000000)
T3C50 000:464.307 - 0.016ms returns 0
T3C50 000:464.319 JLINK_WriteReg(R11, 0x00000000)
T3C50 000:464.330 - 0.016ms returns 0
T3C50 000:464.341 JLINK_WriteReg(R12, 0x00000000)
T3C50 000:464.352 - 0.016ms returns 0
T3C50 000:464.364 JLINK_WriteReg(R13 (SP), 0x20008000)
T3C50 000:464.375 - 0.016ms returns 0
T3C50 000:464.386 JLINK_WriteReg(R14, 0x20000001)
T3C50 000:464.397 - 0.016ms returns 0
T3C50 000:464.409 JLINK_WriteReg(R15 (PC), 0x200000AC)
T3C50 000:464.420 - 0.016ms returns 0
T3C50 000:464.431 JLINK_WriteReg(XPSR, 0x01000000)
T3C50 000:464.443 - 0.016ms returns 0
T3C50 000:464.454 JLINK_WriteReg(MSP, 0x20008000)
T3C50 000:464.465 - 0.016ms returns 0
T3C50 000:464.477 JLINK_WriteReg(PSP, 0x20008000)
T3C50 000:464.488 - 0.016ms returns 0
T3C50 000:464.499 JLINK_WriteReg(CFBP, 0x00000000)
T3C50 000:464.510 - 0.016ms returns 0
T3C50 000:464.522 JLINK_SetBPEx(Addr = 0x20000000, Type = 0xFFFFFFF2)
T3C50 000:464.534 - 0.017ms returns 0x00000004
T3C50 000:464.546 JLINK_Go()
T3C50 000:464.561   CPU_WriteMem(4 bytes @ 0xE0002000)
T3C50 000:464.867   CPU_ReadMem(4 bytes @ 0xE0001000)
T3C50 000:466.776 - 2.242ms
T3C50 000:466.799 JLINK_IsHalted()
T3C50 000:468.162 - 1.396ms returns TRUE
T3C50 000:468.217 JLINK_ReadReg(R15 (PC))
T3C50 000:468.245 - 0.039ms returns 0x20000000
T3C50 000:468.272 JLINK_ClrBPEx(BPHandle = 0x00000004)
T3C50 000:468.295 - 0.034ms returns 0x00
T3C50 000:468.321 JLINK_ReadReg(R0)
T3C50 000:468.343 - 0.033ms returns 0x00000001
T3C50 000:468.370 JLINK_HasError()
T3C50 000:468.396 JLINK_WriteReg(R0, 0x90001000)
T3C50 000:468.420 - 0.034ms returns 0
T3C50 000:468.445 JLINK_WriteReg(R1, 0x00001000)
T3C50 000:468.467 - 0.033ms returns 0
T3C50 000:468.492 JLINK_WriteReg(R2, 0x000000FF)
T3C50 000:468.514 - 0.033ms returns 0
T3C50 000:468.539 JLINK_WriteReg(R3, 0x00000000)
T3C50 000:468.562 - 0.033ms returns 0
T3C50 000:468.587 JLINK_WriteReg(R4, 0x00000000)
T3C50 000:468.615 - 0.043ms returns 0
T3C50 000:468.644 JLINK_WriteReg(R5, 0x00000000)
T3C50 000:468.667 - 0.033ms returns 0
T3C50 000:468.693 JLINK_WriteReg(R6, 0x00000000)
T3C50 000:468.715 - 0.033ms returns 0
T3C50 000:468.740 JLINK_WriteReg(R7, 0x00000000)
T3C50 000:468.763 - 0.033ms returns 0
T3C50 000:468.788 JLINK_WriteReg(R8, 0x00000000)
T3C50 000:468.810 - 0.033ms returns 0
T3C50 000:468.835 JLINK_WriteReg(R9, 0x20000B40)
T3C50 000:468.857 - 0.033ms returns 0
T3C50 000:468.883 JLINK_WriteReg(R10, 0x00000000)
T3C50 000:468.905 - 0.033ms returns 0
T3C50 000:468.930 JLINK_WriteReg(R11, 0x00000000)
T3C50 000:468.953 - 0.033ms returns 0
T3C50 000:468.978 JLINK_WriteReg(R12, 0x00000000)
T3C50 000:469.000 - 0.033ms returns 0
T3C50 000:469.025 JLINK_WriteReg(R13 (SP), 0x20008000)
T3C50 000:469.048 - 0.033ms returns 0
T3C50 000:469.073 JLINK_WriteReg(R14, 0x20000001)
T3C50 000:469.091 - 0.023ms returns 0
T3C50 000:469.105 JLINK_WriteReg(R15 (PC), 0x2000009A)
T3C50 000:469.117 - 0.018ms returns 0
T3C50 000:469.132 JLINK_WriteReg(XPSR, 0x01000000)
T3C50 000:469.143 - 0.016ms returns 0
T3C50 000:469.155 JLINK_WriteReg(MSP, 0x20008000)
T3C50 000:469.165 - 0.016ms returns 0
T3C50 000:469.178 JLINK_WriteReg(PSP, 0x20008000)
T3C50 000:469.190 - 0.016ms returns 0
T3C50 000:469.202 JLINK_WriteReg(CFBP, 0x00000000)
T3C50 000:469.213 - 0.016ms returns 0
T3C50 000:469.226 JLINK_SetBPEx(Addr = 0x20000000, Type = 0xFFFFFFF2)
T3C50 000:469.239 - 0.017ms returns 0x00000005
T3C50 000:469.252 JLINK_Go()
T3C50 000:469.268   CPU_WriteMem(4 bytes @ 0xE0002000)
T3C50 000:469.588   CPU_ReadMem(4 bytes @ 0xE0001000)
T3C50 000:471.633 - 2.404ms
T3C50 000:471.675 JLINK_IsHalted()
T3C50 000:471.917 - 0.264ms returns FALSE
T3C50 000:471.960 JLINK_HasError()
T3C50 000:474.151 JLINK_IsHalted()
T3C50 000:474.411 - 0.272ms returns FALSE
T3C50 000:474.432 JLINK_HasError()
T3C50 000:476.177 JLINK_IsHalted()
T3C50 000:476.586 - 0.440ms returns FALSE
T3C50 000:476.641 JLINK_HasError()
T3C50 000:478.174 JLINK_IsHalted()
T3C50 000:478.581 - 0.438ms returns FALSE
T3C50 000:478.636 JLINK_HasError()
T3C50 000:480.174 JLINK_IsHalted()
T3C50 000:480.579 - 0.436ms returns FALSE
T3C50 000:480.634 JLINK_HasError()
T3C50 000:482.184 JLINK_IsHalted()
T3C50 000:482.519 - 0.365ms returns FALSE
T3C50 000:482.573 JLINK_HasError()
T3C50 000:484.156 JLINK_IsHalted()
T3C50 000:484.472 - 0.347ms returns FALSE
T3C50 000:484.526 JLINK_HasError()
T3C50 000:486.174 JLINK_IsHalted()
T3C50 000:486.578 - 0.434ms returns FALSE
T3C50 000:486.632 JLINK_HasError()
T3C50 000:488.174 JLINK_IsHalted()
T3C50 000:488.599 - 0.455ms returns FALSE
T3C50 000:488.653 JLINK_HasError()
T3C50 000:490.561 JLINK_IsHalted()
T3C50 000:490.892 - 0.368ms returns FALSE
T3C50 000:490.951 JLINK_HasError()
T3C50 000:492.158 JLINK_IsHalted()
T3C50 000:492.459 - 0.313ms returns FALSE
T3C50 000:492.480 JLINK_HasError()
T3C50 000:494.481 JLINK_IsHalted()
T3C50 000:494.783 - 0.334ms returns FALSE
T3C50 000:494.840 JLINK_HasError()
T3C50 000:496.154 JLINK_IsHalted()
T3C50 000:496.440 - 0.309ms returns FALSE
T3C50 000:496.484 JLINK_HasError()
T3C50 000:498.153 JLINK_IsHalted()
T3C50 000:498.404 - 0.263ms returns FALSE
T3C50 000:498.425 JLINK_HasError()
T3C50 000:500.140 JLINK_IsHalted()
T3C50 000:500.403 - 0.297ms returns FALSE
T3C50 000:500.462 JLINK_HasError()
T3C50 000:502.163 JLINK_IsHalted()
T3C50 000:502.456 - 0.325ms returns FALSE
T3C50 000:502.511 JLINK_HasError()
T3C50 000:504.160 JLINK_IsHalted()
T3C50 000:504.453 - 0.324ms returns FALSE
T3C50 000:504.507 JLINK_HasError()
T3C50 000:506.160 JLINK_IsHalted()
T3C50 000:506.431 - 0.302ms returns FALSE
T3C50 000:506.485 JLINK_HasError()
T3C50 000:508.151 JLINK_IsHalted()
T3C50 000:508.416 - 0.295ms returns FALSE
T3C50 000:508.470 JLINK_HasError()
T3C50 000:510.160 JLINK_IsHalted()
T3C50 000:510.457 - 0.327ms returns FALSE
T3C50 000:510.511 JLINK_HasError()
T3C50 000:512.161 JLINK_IsHalted()
T3C50 000:513.551 - 1.401ms returns TRUE
T3C50 000:513.570 JLINK_ReadReg(R15 (PC))
T3C50 000:513.591 - 0.025ms returns 0x20000000
T3C50 000:513.603 JLINK_ClrBPEx(BPHandle = 0x00000005)
T3C50 000:513.614 - 0.016ms returns 0x00
T3C50 000:513.626 JLINK_ReadReg(R0)
T3C50 000:513.637 - 0.016ms returns 0x00000000
T3C50 000:514.148 JLINK_HasError()
T3C50 000:514.166 JLINK_WriteReg(R0, 0x90002000)
T3C50 000:514.179 - 0.020ms returns 0
T3C50 000:514.193 JLINK_WriteReg(R1, 0x00001000)
T3C50 000:514.205 - 0.018ms returns 0
T3C50 000:514.217 JLINK_WriteReg(R2, 0x000000FF)
T3C50 000:514.228 - 0.016ms returns 0
T3C50 000:514.239 JLINK_WriteReg(R3, 0x00000000)
T3C50 000:514.250 - 0.016ms returns 0
T3C50 000:514.262 JLINK_WriteReg(R4, 0x00000000)
T3C50 000:514.273 - 0.016ms returns 0
T3C50 000:514.284 JLINK_WriteReg(R5, 0x00000000)
T3C50 000:514.295 - 0.016ms returns 0
T3C50 000:514.307 JLINK_WriteReg(R6, 0x00000000)
T3C50 000:514.318 - 0.016ms returns 0
T3C50 000:514.329 JLINK_WriteReg(R7, 0x00000000)
T3C50 000:514.340 - 0.016ms returns 0
T3C50 000:514.351 JLINK_WriteReg(R8, 0x00000000)
T3C50 000:514.362 - 0.016ms returns 0
T3C50 000:514.374 JLINK_WriteReg(R9, 0x20000B40)
T3C50 000:514.385 - 0.016ms returns 0
T3C50 000:514.396 JLINK_WriteReg(R10, 0x00000000)
T3C50 000:514.407 - 0.016ms returns 0
T3C50 000:514.418 JLINK_WriteReg(R11, 0x00000000)
T3C50 000:514.429 - 0.016ms returns 0
T3C50 000:514.441 JLINK_WriteReg(R12, 0x00000000)
T3C50 000:514.452 - 0.016ms returns 0
T3C50 000:514.463 JLINK_WriteReg(R13 (SP), 0x20008000)
T3C50 000:514.475 - 0.016ms returns 0
T3C50 000:514.486 JLINK_WriteReg(R14, 0x20000001)
T3C50 000:514.497 - 0.016ms returns 0
T3C50 000:514.509 JLINK_WriteReg(R15 (PC), 0x200000AC)
T3C50 000:514.520 - 0.016ms returns 0
T3C50 000:514.531 JLINK_WriteReg(XPSR, 0x01000000)
T3C50 000:514.542 - 0.016ms returns 0
T3C50 000:514.554 JLINK_WriteReg(MSP, 0x20008000)
T3C50 000:514.564 - 0.016ms returns 0
T3C50 000:514.576 JLINK_WriteReg(PSP, 0x20008000)
T3C50 000:514.587 - 0.016ms returns 0
T3C50 000:514.598 JLINK_WriteReg(CFBP, 0x00000000)
T3C50 000:514.609 - 0.016ms returns 0
T3C50 000:514.621 JLINK_SetBPEx(Addr = 0x20000000, Type = 0xFFFFFFF2)
T3C50 000:514.633 - 0.017ms returns 0x00000006
T3C50 000:514.645 JLINK_Go()
T3C50 000:514.659   CPU_WriteMem(4 bytes @ 0xE0002000)
T3C50 000:514.911   CPU_ReadMem(4 bytes @ 0xE0001000)
T3C50 000:516.851 - 2.237ms
T3C50 000:516.904 JLINK_IsHalted()
T3C50 000:518.297 - 1.404ms returns TRUE
T3C50 000:518.317 JLINK_ReadReg(R15 (PC))
T3C50 000:518.329 - 0.018ms returns 0x20000000
T3C50 000:518.341 JLINK_ClrBPEx(BPHandle = 0x00000006)
T3C50 000:518.352 - 0.016ms returns 0x00
T3C50 000:518.363 JLINK_ReadReg(R0)
T3C50 000:518.374 - 0.016ms returns 0x00000001
T3C50 000:518.386 JLINK_HasError()
T3C50 000:518.398 JLINK_WriteReg(R0, 0x90002000)
T3C50 000:518.409 - 0.016ms returns 0
T3C50 000:518.420 JLINK_WriteReg(R1, 0x00001000)
T3C50 000:518.431 - 0.016ms returns 0
T3C50 000:518.442 JLINK_WriteReg(R2, 0x000000FF)
T3C50 000:518.453 - 0.016ms returns 0
T3C50 000:518.465 JLINK_WriteReg(R3, 0x00000000)
T3C50 000:518.476 - 0.016ms returns 0
T3C50 000:518.487 JLINK_WriteReg(R4, 0x00000000)
T3C50 000:518.498 - 0.016ms returns 0
T3C50 000:518.509 JLINK_WriteReg(R5, 0x00000000)
T3C50 000:518.520 - 0.016ms returns 0
T3C50 000:518.531 JLINK_WriteReg(R6, 0x00000000)
T3C50 000:518.542 - 0.016ms returns 0
T3C50 000:518.553 JLINK_WriteReg(R7, 0x00000000)
T3C50 000:518.564 - 0.016ms returns 0
T3C50 000:518.576 JLINK_WriteReg(R8, 0x00000000)
T3C50 000:518.587 - 0.016ms returns 0
T3C50 000:518.598 JLINK_WriteReg(R9, 0x20000B40)
T3C50 000:518.609 - 0.016ms returns 0
T3C50 000:518.620 JLINK_WriteReg(R10, 0x00000000)
T3C50 000:518.631 - 0.016ms returns 0
T3C50 000:518.642 JLINK_WriteReg(R11, 0x00000000)
T3C50 000:518.653 - 0.016ms returns 0
T3C50 000:518.665 JLINK_WriteReg(R12, 0x00000000)
T3C50 000:518.676 - 0.016ms returns 0
T3C50 000:518.687 JLINK_WriteReg(R13 (SP), 0x20008000)
T3C50 000:518.698 - 0.016ms returns 0
T3C50 000:518.709 JLINK_WriteReg(R14, 0x20000001)
T3C50 000:518.720 - 0.081ms returns 0
T3C50 000:518.799 JLINK_WriteReg(R15 (PC), 0x2000009A)
T3C50 000:518.811 - 0.017ms returns 0
T3C50 000:518.822 JLINK_WriteReg(XPSR, 0x01000000)
T3C50 000:518.833 - 0.016ms returns 0
T3C50 000:518.845 JLINK_WriteReg(MSP, 0x20008000)
T3C50 000:518.856 - 0.016ms returns 0
T3C50 000:518.867 JLINK_WriteReg(PSP, 0x20008000)
T3C50 000:518.878 - 0.016ms returns 0
T3C50 000:518.890 JLINK_WriteReg(CFBP, 0x00000000)
T3C50 000:518.901 - 0.016ms returns 0
T3C50 000:518.912 JLINK_SetBPEx(Addr = 0x20000000, Type = 0xFFFFFFF2)
T3C50 000:518.924 - 0.017ms returns 0x00000007
T3C50 000:518.935 JLINK_Go()
T3C50 000:518.948   CPU_WriteMem(4 bytes @ 0xE0002000)
T3C50 000:519.193   CPU_ReadMem(4 bytes @ 0xE0001000)
T3C50 000:521.063 - 2.139ms
T3C50 000:521.083 JLINK_IsHalted()
T3C50 000:521.278 - 0.206ms returns FALSE
T3C50 000:521.300 JLINK_HasError()
T3C50 000:523.169 JLINK_IsHalted()
T3C50 000:523.451 - 0.306ms returns FALSE
T3C50 000:523.493 JLINK_HasError()
T3C50 000:525.166 JLINK_IsHalted()
T3C50 000:525.451 - 0.307ms returns FALSE
T3C50 000:525.492 JLINK_HasError()
T3C50 000:527.165 JLINK_IsHalted()
T3C50 000:527.431 - 0.289ms returns FALSE
T3C50 000:527.472 JLINK_HasError()
T3C50 000:529.166 JLINK_IsHalted()
T3C50 000:529.409 - 0.267ms returns FALSE
T3C50 000:529.451 JLINK_HasError()
T3C50 000:531.166 JLINK_IsHalted()
T3C50 000:531.426 - 0.283ms returns FALSE
T3C50 000:531.467 JLINK_HasError()
T3C50 000:533.167 JLINK_IsHalted()
T3C50 000:533.432 - 0.287ms returns FALSE
T3C50 000:533.472 JLINK_HasError()
T3C50 000:535.170 JLINK_IsHalted()
T3C50 000:535.454 - 0.307ms returns FALSE
T3C50 000:535.495 JLINK_HasError()
T3C50 000:537.168 JLINK_IsHalted()
T3C50 000:537.432 - 0.287ms returns FALSE
T3C50 000:537.473 JLINK_HasError()
T3C50 000:539.156 JLINK_IsHalted()
T3C50 000:539.433 - 0.300ms returns FALSE
T3C50 000:539.475 JLINK_HasError()
T3C50 000:541.159 JLINK_IsHalted()
T3C50 000:541.397 - 0.261ms returns FALSE
T3C50 000:541.439 JLINK_HasError()
T3C50 000:543.169 JLINK_IsHalted()
T3C50 000:543.427 - 0.281ms returns FALSE
T3C50 000:543.468 JLINK_HasError()
T3C50 000:545.170 JLINK_IsHalted()
T3C50 000:545.440 - 0.293ms returns FALSE
T3C50 000:545.481 JLINK_HasError()
T3C50 000:547.170 JLINK_IsHalted()
T3C50 000:547.426 - 0.279ms returns FALSE
T3C50 000:547.467 JLINK_HasError()
T3C50 000:549.188 JLINK_IsHalted()
T3C50 000:549.589 - 0.424ms returns FALSE
T3C50 000:549.630 JLINK_HasError()
T3C50 000:551.188 JLINK_IsHalted()
T3C50 000:551.588 - 0.423ms returns FALSE
T3C50 000:551.629 JLINK_HasError()
T3C50 000:553.189 JLINK_IsHalted()
T3C50 000:553.589 - 0.423ms returns FALSE
T3C50 000:553.630 JLINK_HasError()
T3C50 000:555.670 JLINK_IsHalted()
T3C50 000:555.996 - 0.350ms returns FALSE
T3C50 000:556.038 JLINK_HasError()
T3C50 000:557.183 JLINK_IsHalted()
T3C50 000:557.474 - 0.314ms returns FALSE
T3C50 000:557.515 JLINK_HasError()
T3C50 000:559.190 JLINK_IsHalted()
T3C50 000:559.579 - 0.412ms returns FALSE
T3C50 000:559.620 JLINK_HasError()
T3C50 000:561.627 JLINK_IsHalted()
T3C50 000:561.947 - 0.343ms returns FALSE
T3C50 000:561.988 JLINK_HasError()
T3C50 000:565.205 JLINK_IsHalted()
T3C50 000:566.820 - 1.627ms returns TRUE
T3C50 000:566.840 JLINK_ReadReg(R15 (PC))
T3C50 000:566.854 - 0.019ms returns 0x20000000
T3C50 000:566.866 JLINK_ClrBPEx(BPHandle = 0x00000007)
T3C50 000:566.878 - 0.017ms returns 0x00
T3C50 000:566.890 JLINK_ReadReg(R0)
T3C50 000:566.901 - 0.016ms returns 0x00000000
T3C50 000:567.413 JLINK_HasError()
T3C50 000:567.430 JLINK_WriteReg(R0, 0x90003000)
T3C50 000:567.443 - 0.018ms returns 0
T3C50 000:567.455 JLINK_WriteReg(R1, 0x00001000)
T3C50 000:567.466 - 0.016ms returns 0
T3C50 000:567.477 JLINK_WriteReg(R2, 0x000000FF)
T3C50 000:567.489 - 0.016ms returns 0
T3C50 000:567.500 JLINK_WriteReg(R3, 0x00000000)
T3C50 000:567.511 - 0.016ms returns 0
T3C50 000:567.522 JLINK_WriteReg(R4, 0x00000000)
T3C50 000:567.533 - 0.016ms returns 0
T3C50 000:567.545 JLINK_WriteReg(R5, 0x00000000)
T3C50 000:567.556 - 0.016ms returns 0
T3C50 000:567.571 JLINK_WriteReg(R6, 0x00000000)
T3C50 000:567.585 - 0.019ms returns 0
T3C50 000:567.597 JLINK_WriteReg(R7, 0x00000000)
T3C50 000:567.608 - 0.016ms returns 0
T3C50 000:567.619 JLINK_WriteReg(R8, 0x00000000)
T3C50 000:567.630 - 0.016ms returns 0
T3C50 000:567.642 JLINK_WriteReg(R9, 0x20000B40)
T3C50 000:567.653 - 0.016ms returns 0
T3C50 000:567.664 JLINK_WriteReg(R10, 0x00000000)
T3C50 000:567.675 - 0.016ms returns 0
T3C50 000:567.687 JLINK_WriteReg(R11, 0x00000000)
T3C50 000:567.698 - 0.016ms returns 0
T3C50 000:567.709 JLINK_WriteReg(R12, 0x00000000)
T3C50 000:567.720 - 0.016ms returns 0
T3C50 000:567.732 JLINK_WriteReg(R13 (SP), 0x20008000)
T3C50 000:567.743 - 0.017ms returns 0
T3C50 000:567.755 JLINK_WriteReg(R14, 0x20000001)
T3C50 000:567.766 - 0.016ms returns 0
T3C50 000:567.778 JLINK_WriteReg(R15 (PC), 0x200000AC)
T3C50 000:567.789 - 0.016ms returns 0
T3C50 000:567.800 JLINK_WriteReg(XPSR, 0x01000000)
T3C50 000:567.812 - 0.016ms returns 0
T3C50 000:567.823 JLINK_WriteReg(MSP, 0x20008000)
T3C50 000:567.834 - 0.016ms returns 0
T3C50 000:567.845 JLINK_WriteReg(PSP, 0x20008000)
T3C50 000:567.856 - 0.016ms returns 0
T3C50 000:567.868 JLINK_WriteReg(CFBP, 0x00000000)
T3C50 000:567.879 - 0.016ms returns 0
T3C50 000:567.890 JLINK_SetBPEx(Addr = 0x20000000, Type = 0xFFFFFFF2)
T3C50 000:567.903 - 0.017ms returns 0x00000008
T3C50 000:567.914 JLINK_Go()
T3C50 000:567.930   CPU_WriteMem(4 bytes @ 0xE0002000)
T3C50 000:568.188   CPU_ReadMem(4 bytes @ 0xE0001000)
T3C50 000:570.181 - 2.290ms
T3C50 000:570.222 JLINK_IsHalted()
T3C50 000:571.591 - 1.392ms returns TRUE
T3C50 000:571.634 JLINK_ReadReg(R15 (PC))
T3C50 000:571.660 - 0.037ms returns 0x20000000
T3C50 000:571.685 JLINK_ClrBPEx(BPHandle = 0x00000008)
T3C50 000:571.712 - 0.037ms returns 0x00
T3C50 000:571.737 JLINK_ReadReg(R0)
T3C50 000:571.760 - 0.033ms returns 0x00000001
T3C50 000:571.785 JLINK_HasError()
T3C50 000:571.811 JLINK_WriteReg(R0, 0x90003000)
T3C50 000:571.834 - 0.034ms returns 0
T3C50 000:571.859 JLINK_WriteReg(R1, 0x00001000)
T3C50 000:571.882 - 0.033ms returns 0
T3C50 000:571.907 JLINK_WriteReg(R2, 0x000000FF)
T3C50 000:571.929 - 0.033ms returns 0
T3C50 000:571.954 JLINK_WriteReg(R3, 0x00000000)
T3C50 000:571.977 - 0.034ms returns 0
T3C50 000:572.002 JLINK_WriteReg(R4, 0x00000000)
T3C50 000:572.025 - 0.034ms returns 0
T3C50 000:572.050 JLINK_WriteReg(R5, 0x00000000)
T3C50 000:572.073 - 0.034ms returns 0
T3C50 000:572.097 JLINK_WriteReg(R6, 0x00000000)
T3C50 000:572.120 - 0.033ms returns 0
T3C50 000:572.144 JLINK_WriteReg(R7, 0x00000000)
T3C50 000:572.169 - 0.035ms returns 0
T3C50 000:572.193 JLINK_WriteReg(R8, 0x00000000)
T3C50 000:572.216 - 0.033ms returns 0
T3C50 000:572.240 JLINK_WriteReg(R9, 0x20000B40)
T3C50 000:572.263 - 0.033ms returns 0
T3C50 000:572.287 JLINK_WriteReg(R10, 0x00000000)
T3C50 000:572.310 - 0.033ms returns 0
T3C50 000:572.335 JLINK_WriteReg(R11, 0x00000000)
T3C50 000:572.357 - 0.033ms returns 0
T3C50 000:572.382 JLINK_WriteReg(R12, 0x00000000)
T3C50 000:572.405 - 0.033ms returns 0
T3C50 000:572.429 JLINK_WriteReg(R13 (SP), 0x20008000)
T3C50 000:572.452 - 0.033ms returns 0
T3C50 000:572.477 JLINK_WriteReg(R14, 0x20000001)
T3C50 000:572.499 - 0.033ms returns 0
T3C50 000:572.524 JLINK_WriteReg(R15 (PC), 0x2000009A)
T3C50 000:572.551 - 0.038ms returns 0
T3C50 000:572.576 JLINK_WriteReg(XPSR, 0x01000000)
T3C50 000:572.598 - 0.033ms returns 0
T3C50 000:572.623 JLINK_WriteReg(MSP, 0x20008000)
T3C50 000:572.646 - 0.033ms returns 0
T3C50 000:572.670 JLINK_WriteReg(PSP, 0x20008000)
T3C50 000:572.693 - 0.034ms returns 0
T3C50 000:572.718 JLINK_WriteReg(CFBP, 0x00000000)
T3C50 000:572.741 - 0.033ms returns 0
T3C50 000:572.765 JLINK_SetBPEx(Addr = 0x20000000, Type = 0xFFFFFFF2)
T3C50 000:572.789 - 0.035ms returns 0x00000009
T3C50 000:572.814 JLINK_Go()
T3C50 000:572.841   CPU_WriteMem(4 bytes @ 0xE0002000)
T3C50 000:573.139   CPU_ReadMem(4 bytes @ 0xE0001000)
T3C50 000:575.119 - 2.315ms
T3C50 000:575.140 JLINK_IsHalted()
T3C50 000:575.378 - 0.252ms returns FALSE
T3C50 000:575.414 JLINK_HasError()
T3C50 000:577.176 JLINK_IsHalted()
T3C50 000:577.471 - 0.318ms returns FALSE
T3C50 000:577.512 JLINK_HasError()
T3C50 000:579.194 JLINK_IsHalted()
T3C50 000:579.594 - 0.423ms returns FALSE
T3C50 000:579.635 JLINK_HasError()
T3C50 000:581.195 JLINK_IsHalted()
T3C50 000:581.597 - 0.424ms returns FALSE
T3C50 000:581.637 JLINK_HasError()
T3C50 000:583.195 JLINK_IsHalted()
T3C50 000:583.595 - 0.423ms returns FALSE
T3C50 000:583.636 JLINK_HasError()
T3C50 000:585.196 JLINK_IsHalted()
T3C50 000:585.597 - 0.423ms returns FALSE
T3C50 000:585.638 JLINK_HasError()
T3C50 000:587.179 JLINK_IsHalted()
T3C50 000:587.472 - 0.315ms returns FALSE
T3C50 000:587.512 JLINK_HasError()
T3C50 000:589.180 JLINK_IsHalted()
T3C50 000:589.448 - 0.291ms returns FALSE
T3C50 000:589.489 JLINK_HasError()
T3C50 000:591.180 JLINK_IsHalted()
T3C50 000:591.434 - 0.265ms returns FALSE
T3C50 000:591.454 JLINK_HasError()
T3C50 000:593.759 JLINK_IsHalted()
T3C50 000:594.040 - 0.308ms returns FALSE
T3C50 000:594.086 JLINK_HasError()
T3C50 000:595.180 JLINK_IsHalted()
T3C50 000:595.412 - 0.255ms returns FALSE
T3C50 000:595.453 JLINK_HasError()
T3C50 000:597.792 JLINK_IsHalted()
T3C50 000:598.108 - 0.347ms returns FALSE
T3C50 000:598.163 JLINK_HasError()
T3C50 000:600.647 JLINK_IsHalted()
T3C50 000:600.878 - 0.242ms returns FALSE
T3C50 000:600.900 JLINK_HasError()
T3C50 000:602.201 JLINK_IsHalted()
T3C50 000:602.479 - 0.289ms returns FALSE
T3C50 000:602.499 JLINK_HasError()
T3C50 000:604.201 JLINK_IsHalted()
T3C50 000:604.477 - 0.287ms returns FALSE
T3C50 000:604.497 JLINK_HasError()
T3C50 000:606.202 JLINK_IsHalted()
T3C50 000:606.484 - 0.293ms returns FALSE
T3C50 000:606.504 JLINK_HasError()
T3C50 000:608.182 JLINK_IsHalted()
T3C50 000:608.432 - 0.273ms returns FALSE
T3C50 000:608.475 JLINK_HasError()
T3C50 000:610.183 JLINK_IsHalted()
T3C50 000:610.468 - 0.315ms returns FALSE
T3C50 000:610.522 JLINK_HasError()
T3C50 000:612.183 JLINK_IsHalted()
T3C50 000:612.437 - 0.277ms returns FALSE
T3C50 000:612.479 JLINK_HasError()
T3C50 000:614.184 JLINK_IsHalted()
T3C50 000:614.451 - 0.279ms returns FALSE
T3C50 000:614.472 JLINK_HasError()
T3C50 000:616.184 JLINK_IsHalted()
T3C50 000:616.437 - 0.270ms returns FALSE
T3C50 000:616.471 JLINK_HasError()
T3C50 000:618.185 JLINK_IsHalted()
T3C50 000:619.585 - 1.411ms returns TRUE
T3C50 000:619.605 JLINK_ReadReg(R15 (PC))
T3C50 000:619.618 - 0.019ms returns 0x20000000
T3C50 000:619.630 JLINK_ClrBPEx(BPHandle = 0x00000009)
T3C50 000:619.642 - 0.016ms returns 0x00
T3C50 000:619.654 JLINK_ReadReg(R0)
T3C50 000:619.665 - 0.016ms returns 0x00000000
T3C50 000:620.172 JLINK_HasError()
T3C50 000:620.189 JLINK_WriteReg(R0, 0x90004000)
T3C50 000:620.202 - 0.018ms returns 0
T3C50 000:620.214 JLINK_WriteReg(R1, 0x00001000)
T3C50 000:620.225 - 0.016ms returns 0
T3C50 000:620.236 JLINK_WriteReg(R2, 0x000000FF)
T3C50 000:620.247 - 0.016ms returns 0
T3C50 000:620.259 JLINK_WriteReg(R3, 0x00000000)
T3C50 000:620.269 - 0.016ms returns 0
T3C50 000:620.281 JLINK_WriteReg(R4, 0x00000000)
T3C50 000:620.292 - 0.016ms returns 0
T3C50 000:620.303 JLINK_WriteReg(R5, 0x00000000)
T3C50 000:620.314 - 0.016ms returns 0
T3C50 000:620.326 JLINK_WriteReg(R6, 0x00000000)
T3C50 000:620.337 - 0.016ms returns 0
T3C50 000:620.348 JLINK_WriteReg(R7, 0x00000000)
T3C50 000:620.359 - 0.016ms returns 0
T3C50 000:620.370 JLINK_WriteReg(R8, 0x00000000)
T3C50 000:620.381 - 0.016ms returns 0
T3C50 000:620.393 JLINK_WriteReg(R9, 0x20000B40)
T3C50 000:620.404 - 0.016ms returns 0
T3C50 000:620.416 JLINK_WriteReg(R10, 0x00000000)
T3C50 000:620.428 - 0.018ms returns 0
T3C50 000:620.441 JLINK_WriteReg(R11, 0x00000000)
T3C50 000:620.452 - 0.016ms returns 0
T3C50 000:620.464 JLINK_WriteReg(R12, 0x00000000)
T3C50 000:620.475 - 0.016ms returns 0
T3C50 000:620.486 JLINK_WriteReg(R13 (SP), 0x20008000)
T3C50 000:620.497 - 0.016ms returns 0
T3C50 000:620.509 JLINK_WriteReg(R14, 0x20000001)
T3C50 000:620.520 - 0.016ms returns 0
T3C50 000:620.535 JLINK_WriteReg(R15 (PC), 0x200000AC)
T3C50 000:620.549 - 0.019ms returns 0
T3C50 000:620.560 JLINK_WriteReg(XPSR, 0x01000000)
T3C50 000:620.571 - 0.016ms returns 0
T3C50 000:620.583 JLINK_WriteReg(MSP, 0x20008000)
T3C50 000:620.594 - 0.016ms returns 0
T3C50 000:620.605 JLINK_WriteReg(PSP, 0x20008000)
T3C50 000:620.616 - 0.016ms returns 0
T3C50 000:620.627 JLINK_WriteReg(CFBP, 0x00000000)
T3C50 000:620.638 - 0.016ms returns 0
T3C50 000:620.650 JLINK_SetBPEx(Addr = 0x20000000, Type = 0xFFFFFFF2)
T3C50 000:620.662 - 0.017ms returns 0x0000000A
T3C50 000:620.674 JLINK_Go()
T3C50 000:620.689   CPU_WriteMem(4 bytes @ 0xE0002000)
T3C50 000:620.959   CPU_ReadMem(4 bytes @ 0xE0001000)
T3C50 000:622.914 - 2.253ms
T3C50 000:622.936 JLINK_IsHalted()
T3C50 000:624.293 - 1.367ms returns TRUE
T3C50 000:624.312 JLINK_ReadReg(R15 (PC))
T3C50 000:624.324 - 0.018ms returns 0x20000000
T3C50 000:624.336 JLINK_ClrBPEx(BPHandle = 0x0000000A)
T3C50 000:624.347 - 0.016ms returns 0x00
T3C50 000:624.359 JLINK_ReadReg(R0)
T3C50 000:624.370 - 0.016ms returns 0x00000001
T3C50 000:624.382 JLINK_HasError()
T3C50 000:624.393 JLINK_WriteReg(R0, 0x90004000)
T3C50 000:624.405 - 0.017ms returns 0
T3C50 000:624.421 JLINK_WriteReg(R1, 0x00001000)
T3C50 000:624.450 - 0.044ms returns 0
T3C50 000:624.481 JLINK_WriteReg(R2, 0x000000FF)
T3C50 000:624.510 - 0.042ms returns 0
T3C50 000:624.540 JLINK_WriteReg(R3, 0x00000000)
T3C50 000:624.570 - 0.043ms returns 0
T3C50 000:624.600 JLINK_WriteReg(R4, 0x00000000)
T3C50 000:624.628 - 0.042ms returns 0
T3C50 000:624.658 JLINK_WriteReg(R5, 0x00000000)
T3C50 000:624.687 - 0.042ms returns 0
T3C50 000:624.717 JLINK_WriteReg(R6, 0x00000000)
T3C50 000:624.746 - 0.043ms returns 0
T3C50 000:624.776 JLINK_WriteReg(R7, 0x00000000)
T3C50 000:624.805 - 0.043ms returns 0
T3C50 000:624.835 JLINK_WriteReg(R8, 0x00000000)
T3C50 000:624.864 - 0.042ms returns 0
T3C50 000:624.894 JLINK_WriteReg(R9, 0x20000B40)
T3C50 000:624.923 - 0.042ms returns 0
T3C50 000:624.953 JLINK_WriteReg(R10, 0x00000000)
T3C50 000:624.982 - 0.043ms returns 0
T3C50 000:625.012 JLINK_WriteReg(R11, 0x00000000)
T3C50 000:625.041 - 0.043ms returns 0
T3C50 000:625.071 JLINK_WriteReg(R12, 0x00000000)
T3C50 000:625.100 - 0.043ms returns 0
T3C50 000:625.130 JLINK_WriteReg(R13 (SP), 0x20008000)
T3C50 000:625.160 - 0.045ms returns 0
T3C50 000:625.193 JLINK_WriteReg(R14, 0x20000001)
T3C50 000:625.224 - 0.056ms returns 0
T3C50 000:625.296 JLINK_WriteReg(R15 (PC), 0x2000009A)
T3C50 000:625.336 - 0.054ms returns 0
T3C50 000:625.371 JLINK_WriteReg(XPSR, 0x01000000)
T3C50 000:625.398 - 0.034ms returns 0
T3C50 000:625.413 JLINK_WriteReg(MSP, 0x20008000)
T3C50 000:625.424 - 0.016ms returns 0
T3C50 000:625.436 JLINK_WriteReg(PSP, 0x20008000)
T3C50 000:625.447 - 0.016ms returns 0
T3C50 000:625.459 JLINK_WriteReg(CFBP, 0x00000000)
T3C50 000:625.470 - 0.016ms returns 0
T3C50 000:625.482 JLINK_SetBPEx(Addr = 0x20000000, Type = 0xFFFFFFF2)
T3C50 000:625.494 - 0.017ms returns 0x0000000B
T3C50 000:625.507 JLINK_Go()
T3C50 000:625.520   CPU_WriteMem(4 bytes @ 0xE0002000)
T3C50 000:625.806   CPU_ReadMem(4 bytes @ 0xE0001000)
T3C50 000:627.727 - 2.241ms
T3C50 000:627.761 JLINK_IsHalted()
T3C50 000:627.986 - 0.235ms returns FALSE
T3C50 000:628.006 JLINK_HasError()
T3C50 000:629.169 JLINK_IsHalted()
T3C50 000:629.450 - 0.293ms returns FALSE
T3C50 000:629.471 JLINK_HasError()
T3C50 000:631.167 JLINK_IsHalted()
T3C50 000:631.439 - 0.284ms returns FALSE
T3C50 000:631.460 JLINK_HasError()
T3C50 000:633.167 JLINK_IsHalted()
T3C50 000:633.440 - 0.285ms returns FALSE
T3C50 000:633.461 JLINK_HasError()
T3C50 000:635.167 JLINK_IsHalted()
T3C50 000:635.444 - 0.287ms returns FALSE
T3C50 000:635.464 JLINK_HasError()
T3C50 000:637.168 JLINK_IsHalted()
T3C50 000:637.447 - 0.297ms returns FALSE
T3C50 000:637.473 JLINK_HasError()
T3C50 000:639.186 JLINK_IsHalted()
T3C50 000:639.518 - 0.356ms returns FALSE
T3C50 000:639.560 JLINK_HasError()
T3C50 000:641.168 JLINK_IsHalted()
T3C50 000:641.416 - 0.259ms returns FALSE
T3C50 000:641.440 JLINK_HasError()
T3C50 000:643.170 JLINK_IsHalted()
T3C50 000:643.424 - 0.274ms returns FALSE
T3C50 000:643.461 JLINK_HasError()
T3C50 000:645.170 JLINK_IsHalted()
T3C50 000:645.449 - 0.300ms returns FALSE
T3C50 000:645.487 JLINK_HasError()
T3C50 000:647.170 JLINK_IsHalted()
T3C50 000:647.450 - 0.290ms returns FALSE
T3C50 000:647.469 JLINK_HasError()
T3C50 000:649.171 JLINK_IsHalted()
T3C50 000:649.451 - 0.300ms returns FALSE
T3C50 000:649.479 JLINK_HasError()
T3C50 000:651.172 JLINK_IsHalted()
T3C50 000:651.459 - 0.308ms returns FALSE
T3C50 000:651.496 JLINK_HasError()
T3C50 000:653.172 JLINK_IsHalted()
T3C50 000:653.451 - 0.300ms returns FALSE
T3C50 000:653.488 JLINK_HasError()
T3C50 000:655.189 JLINK_IsHalted()
T3C50 000:655.512 - 0.347ms returns FALSE
T3C50 000:655.554 JLINK_HasError()
T3C50 000:657.174 JLINK_IsHalted()
T3C50 000:657.417 - 0.264ms returns FALSE
T3C50 000:657.455 JLINK_HasError()
T3C50 000:659.174 JLINK_IsHalted()
T3C50 000:659.444 - 0.290ms returns FALSE
T3C50 000:659.481 JLINK_HasError()
T3C50 000:661.189 JLINK_IsHalted()
T3C50 000:661.495 - 0.316ms returns FALSE
T3C50 000:661.514 JLINK_HasError()
T3C50 000:663.174 JLINK_IsHalted()
T3C50 000:663.441 - 0.288ms returns FALSE
T3C50 000:663.478 JLINK_HasError()
T3C50 000:665.174 JLINK_IsHalted()
T3C50 000:665.454 - 0.300ms returns FALSE
T3C50 000:665.491 JLINK_HasError()
T3C50 000:667.175 JLINK_IsHalted()
T3C50 000:667.454 - 0.300ms returns FALSE
T3C50 000:667.492 JLINK_HasError()
T3C50 000:669.176 JLINK_IsHalted()
T3C50 000:669.455 - 0.300ms returns FALSE
T3C50 000:669.493 JLINK_HasError()
T3C50 000:671.170 JLINK_IsHalted()
T3C50 000:672.618 - 1.470ms returns TRUE
T3C50 000:672.650 JLINK_ReadReg(R15 (PC))
T3C50 000:672.664 - 0.019ms returns 0x20000000
T3C50 000:672.676 JLINK_ClrBPEx(BPHandle = 0x0000000B)
T3C50 000:672.688 - 0.016ms returns 0x00
T3C50 000:672.700 JLINK_ReadReg(R0)
